! Touchstone file exported from HFSS 2023.2.0
!        File:           C:/Users/aapoi/Documents/Escuela/Maestria/EMT/HFSS/Array2_E_CutModel_vivaldi.aedt
!        Generated:      2:45:25 PM  Aug 25, 2025
!        Design:         HFSSDesign1
!        Project:        Array2_E_CutModel_vivaldi
!        Setup:          Setup1
!        Solution:       Sweep
!
! Variables:
!        $Bladder_Full_X_Shift = 2.5cm
!        $Bladder_Full_Z_Shift = 3cm
!        $Bladder_shift_from_PB = 35mm
!        $Pubic_Bone_Angle = 55deg
!        $ant_bottom_shift = 25mm
!        $ant_rot = 18.5deg
!        $ant_spacing = 20mm
!        $ant_sweep_shift = 5mm
!        $anteposterior_diameter = 10.49cm
!        $axial_bladder_diam = 44mm
!        $back_pelvic_bone_height = 0.1125meter
!        $back_pelvic_bone_rectangle_Xshift = 64.3578981445632mm
!        $backset = 0mm
!        $bladder_wall_thickness = 3.15mm
!        $body_axial_ratio = 1.59973110444618
!        $body_major_rad = 10.6361cm
!        $body_minor_rad = 17.0149cm
!        $center_bladder_rad = 0.073838504391812meter
!        $coccyx_thickness = -15.5mm
!        $coccyx_tip_width = 10mm
!        $cone_angle_sacrococcyx = 33.56deg
!        $coronal_bladder_diam = 37mm
!        $end_u = 450deg
!        $end_v = 270deg
!        $fat_thickness = 13.5031018554368mm
!        $front_pelvic_bone_height = 55mm
!        $horizontal_shift = 40mm
!        $horizontal_spacing = 50mm
!        $mix_major_rad = 0.0808578981445632meter
!        $model_height = 0.15meter
!        $muscle_thickness = 0.01meter
!        $pelvis_angle = 55deg
!        $pubic_bone_thickness = 16.5mm
!        $rad_curve_back_bones = 89.2mm
!        $sacrum_top_width = 88mm
!        $sagittal_bladder_diam = 35mm
!        $side_ant_offset = -5.44mm
!        $skin_thickness = 0.002meter
!        $start_u = 90deg
!        $start_v = 90deg
!        $striaght_sacrococcyx_length = 126mm
!        $transverse_diameter = 13cm
!        $x_bladder_rad = 17.5mm
!        $y_bladder_rad = 18.5mm
!        $z_bladder_rad = 22mm
!        Ad = 1mm
!        An = 5.5mm
!        Bd = 1.7mm
!        Bw = 0.2mm
!        Cd = 5mm
!        Dd = 8.3mm
!        Ed = 5.8mm
!        Fd = 1.3mm
!        Gd = 4.6mm
!        H = 0.05mm
!        H_s = 60mm
!        Hc = 0.5mm
!        Hd = 4.1mm
!        Hs = 40mm
!        Id = 1.3mm
!        Jd = 6.5mm
!        Kd = 8.5mm
!        Lc = 3mm
!        Ld = 13mm
!        Md = 3.5mm
!        Mount_d = 94mm
!        N = 100
!        Nd = 5.5mm
!        Od = 7.3mm
!        Pd = 15mm
!        Rd = 20mm
!        Rin_c = 0.5mm
!        Rout_c = 1.15mm
!        Rs = 75mm
!        Sd = 20mm
!        Tc = 1mm
!        W = 60mm
!        Wc = 4mm
!        a = 0.05meter
!        b = 0.4meter
!        c = 0.3meter
!        model_height = 0.2meter
!        s_ext = 0.5
!        t = 0deg
!        thickness = 1.905mm
!        u = 2rad
!        v = 2rad
!        xd3a = -2.5mm
!        yd3a = -16mm
!        zd3a = -12mm
!
# GHz S MA R 50.000000
! Terminal data exported
! Port[1] = 1
! Port[2] = 2
! Port[3] = 3
! Port[4] = 4
! Port[5] = 5
! Port[6] = 6
0.5                            0.123681684843302 -44.879615642419 0.237122231905143 162.037686483775 0.112714597645807 77.9542482559546 0.0646375682889795 13.7808794909343 
                               0.0419611727158104 -32.0078958409474 0.0268902749085303 -70.1298089624626 
                               0.237122224623559 162.037689690471 0.191464672459179 -22.7039328022978 0.216195928596889 172.170564536686 0.0987326802043312 90.4484438837762 
                               0.0630099620155919 24.1058644672811 0.0419443529509087 -32.0486158892756 
                               0.112714684724922 77.9542421576477 0.216195994017066 172.170555599862 0.169089748536018 -23.3182082158261 0.184787674726667 168.681918677698 
                               0.0987360061783768 90.4423702587602 0.0646452679643251 13.7238191371738 
                               0.064637560143826 13.7808756725038 0.0987326819084957 90.4484433386037 0.184787621412068 168.681924468804 0.168856409871176 -23.0398260557093 
                               0.216226630679667 172.173577961682 0.112694516256848 77.9387809768838 
                               0.0419611749520976 -32.0079050839643 0.0630099676244173 24.105865289187  0.0987359860392384 90.4424009791725 0.21622662955522 172.173583484983 
                               0.19156872451355 -22.7302162136842 0.237011302583769 162.011751424451 
                               0.0268902991708728 -70.1298519875908 0.0419444069776842 -32.0486438501851 0.0646452299899791 13.7238323624748 0.112694585938711 77.9387435698655 
                               0.237011380363894 162.011733760835 0.123511585928389 -44.9593444322739 
! Gamma         0                0                0                0                0                0                0                0                0                0                0                0                
! Port Impedance         50               0                50               0                50               0                50               0                50               0                50               0                
0.55                           0.0992072078937973 -70.3703375890154 0.222661756259316 126.758088226033 0.0951066677463397 31.4276833905736 0.0524652726530364 -45.8739791272006 
                               0.0374421205409852 -104.229109319763 0.0331203119945123 -150.378091831015 
                               0.222661603308174 126.758019602888 0.190959009429951 -63.0894512650732 0.230707660962773 138.956617322066 0.0832097353159789 45.5222013623906 
                               0.0481869306653032 -34.7329945233526 0.0374221203467853 -104.285649319535 
                               0.0951066047116737 31.4276669514533 0.230707728866357 138.956610495339 0.159089297980551 -64.3265351248078 0.200587617514595 135.058616872718 
                               0.0832399288299959 45.5214951581333 0.0524448181843512 -45.9404777205484 
                               0.0524650947757175 -45.8736137255748 0.0832097425033491 45.5222971766075 0.200587068186115 135.058668814419 0.158702506310516 -64.1430260062784 
                               0.230712615481178 138.938088023862 0.0950658150941994 31.4129462214465 
                               0.0374422309546589 -104.229207448468 0.0481869275231578 -34.7329755578069 0.0832399051418965 45.521504220307  0.230712538925412 138.938103315752 
                               0.190998731132938 -63.0808852229032 0.222577774104722 126.752906923844 
                               0.0331203016189553 -150.37819887001 0.0374223377371796 -104.285536789232 0.0524446466618761 -45.9407267489939 0.0950656860068171 31.4129034358989 
                               0.222577653733207 126.752878474678 0.0989559192359945 -70.4349889143521 
! Gamma         0                0                0                0                0                0                0                0                0                0                0                0                
! Port Impedance         50               0                50               0                50               0                50               0                50               0                50               0                
0.6                            0.0704525644880404 -102.070734245476 0.200538910416829 96.5139164687879 0.0746875007802689 -14.7759904806335 0.0429057742747786 -100.907540550096 
                               0.026778796057963 -167.060060596182 0.026055256729263 122.491224459447 
                               0.200539074395142 96.5139129565642 0.163150770891338 -103.533137599991 0.229706143018566 105.42270810959  0.0723297133419602 6.88863230135478 
                               0.0354887166047191 -82.1547600863877 0.0267410233331633 -167.108030968927 
                               0.074687581419134 -14.7760031995138 0.229706168990928 105.422700491549 0.11990260600702 -107.390342077533 0.203808374317153 101.542646345491 
                               0.0723612467238226 6.86725538237724 0.0428730925026655 -100.958897224648 
                               0.0429059183508668 -100.907437071925 0.0723297342543568 6.88861035663522 0.20380834022093 101.542690285594 0.119379493915006 -107.206650555671 
                               0.229648695803474 105.402602576519 0.074655930464892 -14.7927483181772 
                               0.0267787120588533 -167.060120717772 0.0354887408191171 -82.1547308210098 0.0723612532928598 6.86724608873786 0.229648670578898 105.402615447231 
                               0.163188950877323 -103.509867030305 0.200488673179079 96.5185611501856 
                               0.0260552397193613 122.491256805773 0.026741047928162 -167.10817536566 0.0428729190138403 -100.958773727306 0.0746558234988603 -14.7927020765506 
                               0.200488577239873 96.5185726417022 0.0701437432509598 -102.146171059673 
! Gamma         0                0                0                0                0                0                0                0                0                0                0                0                
! Port Impedance         50               0                50               0                50               0                50               0                50               0                50               0                
0.65                           0.0295393409007378 -128.425459910189 0.185555776453458 67.0109505920892 0.0499660054812471 -54.4410936728682 0.0302011992320866 -163.262659044465 
                               0.0181635639033875 131.286084006748 0.0145012087853478 43.1976122399977 
                               0.185555263834892 67.0109764275672 0.118869705061104 -149.54033805783 0.215749556444693 71.8670614806284 0.064636925890222 -34.8702863624049 
                               0.0291620340887807 -119.968334561279 0.0181332433957726 131.294545024817 
                               0.0499660083055917 -54.4411831322063 0.215749870140974 71.8669900827889 0.0852514799831786 -157.312386165084 0.189204498302967 66.9940598302791 
                               0.0646407518932777 -34.9036436657729 0.0301837012741422 -163.306639015922 
                               0.0302005165936523 -163.261888403331 0.0646371338984087 -34.8703317364374 0.189204177770536 66.9939326770907 0.0846209347149123 -157.134312377843 
                               0.215670227700524 71.862883696978  0.0498982098344695 -54.4575648862278 
                               0.0181632637824475 131.284506051584 0.0291623809887042 -119.96813630554 0.0646407818197308 -34.90364625441  0.215669944138488 71.8629620903565 
                               0.118944459608829 -149.520094277199 0.185523141140701 67.0141546845603 
                               0.0145012039946626 43.1970524247032 0.0181338690492378 131.293709670881 0.0301836771780283 -163.308054830957 0.0498982047158338 -54.4573979781009 
                               0.185523201709848 67.0141306769007 0.0291352759170337 -128.343114985662 
! Gamma         0                0                0                0                0                0                0                0                0                0                0                0                
! Port Impedance         50               0                50               0                50               0                50               0                50               0                50               0                
0.7                            0.0181766140742277 70.8320929155645 0.169302174779977 36.712624602047  0.0326780306221462 -82.4865269371665 0.0143530618962825 128.419993241883 
                               0.00875171260436798 74.1175836467265 0.00502319156271661 -38.0745545085988 
                               0.169302267343973 36.7126315846612 0.0737592515329443 141.558637728178 0.197894177659032 37.6720641369515 0.0482213863632764 -78.376484462704 
                               0.0280593594835376 -172.920199577874 0.00872780740860933 74.168320903536  
                               0.0326780697517032 -82.4866185461607 0.197894447333149 37.6720870720307 0.0808940602846748 128.468077951735 0.168866640461994 36.9487751301729 
                               0.0482267281674744 -78.4082444101139 0.0143461480822285 128.332536481162 
                               0.0143531922427124 128.419606929953 0.048221401363423 -78.3764755456845 0.168866717938492 36.9487468138916 0.0802310762909497 128.394098783538 
                               0.19786631613582 37.6817862406437 0.0326165958196877 -82.3551574189652 
                               0.00875171997593645 74.1168300275252 0.0280593441876336 -172.920299529945 0.0482267042113475 -78.408234443907 0.197866188469019 37.6817791421694 
                               0.0739245509661974 141.562979050303 0.169238893478301 36.7236057992176 
                               0.00502321288394174 -38.0746636663022 0.00872793603517563 74.1684581064834 0.0143461778989194 128.33300060962  0.0326165674969998 -82.3551499065975 
                               0.169238841340328 36.7236007867335 0.0184124667872908 69.8248008646838 
! Gamma         0                0                0                0                0                0                0                0                0                0                0                0                
! Port Impedance         50               0                50               0                50               0                50               0                50               0                50               0                
0.75                           0.0874877630875262 24.2795232512758 0.154212132004786 5.37269113379631 0.0247505050831928 -99.3970989036692 0.00258690238755227 -70.9570834183026 
                               0.00308013011309053 90.9349987044554 0.00571511821539953 88.0079604612269 
                               0.15421207533626 5.37267684038306 0.08968210665626 60.2520658138945 0.166736468870116 2.42169892659979 0.0323917071026037 -110.165753933136 
                               0.0164423302169794 119.983332036345 0.00309367676073186 91.3302589675066 
                               0.0247504610313562 -99.3972589450992 0.166736500572216 2.42168477863469 0.119994451962036 63.4977626297715 0.156897718919158 6.71663068815254 
                               0.0323948523845181 -110.251814658721 0.0025934709242701 -70.6352263637281 
                               0.00258688126251988 -70.9554149827623 0.0323916714556379 -110.165727716232 0.15689772661507 6.71663889511035 0.11947552311935 63.3647580637949 
                               0.16675547628527 2.43404835298232 0.0247970558881207 -99.1961622019635 
                               0.00308017123461047 90.9336604788876 0.0164423307518678 119.983324423274 0.0323948839500628 -110.251816487256 0.16675548663709 2.43406989328011 
                               0.0898989924416919 60.3254681332829 0.154154855318448 5.4080508642745  
                               0.00571518348977108 88.0075287590902 0.00309364330193703 91.3327239918986 0.00259350994378823 -70.6373391626195 0.0247970404260446 -99.1960318120489 
                               0.154154908723415 5.4080649258519  0.0877615206768979 24.1245098947924 
! Gamma         0                0                0                0                0                0                0                0                0                0                0                0                
! Port Impedance         50               0                50               0                50               0                50               0                50               0                50               0                
0.8                            0.158985168094858 -6.97215515867564 0.135518871696279 -28.3439354339917 0.024291932801844 -114.879520013537 0.0124186208050149 -178.569645119474 
                               0.0081284872902814 84.2825796579418 0.0138234517248639 -15.2937876751352 
                               0.135519144730355 -28.3439374963676 0.149946905061701 12.1968385162166 0.131851903508046 -28.50027153931  0.0213603071973354 -133.424307513266 
                               0.00184614352101766 102.179222455761 0.00814345038770422 84.2436475349049 
                               0.0242918296884162 -114.879710367405 0.131852606577873 -28.4969676633133 0.169619681432151 21.5290852997576 0.138293015599691 -25.7286424958627 
                               0.0213243657595768 -133.549483068077 0.0124079522362228 -178.498590842595 
                               0.0124189393353719 -178.56824223176 0.0213601621459136 -133.423546474571 0.138293061866335 -25.7285315661897 0.169195078712478 21.4653884877022 
                               0.131911962384558 -28.485357527345 0.0243729441598241 -114.844841294924 
                               0.00812838006208538 84.2803882244612 0.00184614458099955 102.178912547644 0.0213242929523732 -133.549963970002 0.13191178290503 -28.488045313761 
                               0.150134255708785 12.26246130497   0.135510480652977 -28.2910799932684 
                               0.0138239085266345 -15.2934250757366 0.00814413408259164 84.2440671406137 0.0124075751782688 -178.498891042558 0.0243728417196866 -114.844790056186 
                               0.135510350513735 -28.2910656271485 0.159230172202954 -7.03501619053906 
! Gamma         0                0                0                0                0                0                0                0                0                0                0                0                
! Port Impedance         50               0                50               0                50               0                50               0                50               0                50               0                
0.85                           0.217236550502336 -32.0188547636001 0.111162536214535 -60.5487229631451 0.0291931071980087 -147.676852347331 0.0138362252370047 119.515842118248 
                               0.0143455705854642 19.975309034324  0.0141434036692308 -103.128545625389 
                               0.111162122466585 -60.5483598036579 0.204729507608124 -19.8241382499972 0.108524442832167 -55.6216607987545 0.0180783359161712 -134.838482097911 
                               0.0111420907257578 155.026639878114 0.0143585426780999 19.9599772461107 
                               0.0291933676166449 -147.676946111728 0.108539173176607 -55.6179511170721 0.216905143810131 -9.58401635192086 0.112718411616055 -55.5778225792892 
                               0.0180244009478971 -134.823077619093 0.0138309175380305 119.563924165298 
                               0.0138357619850651 119.516504809928 0.0180779118950539 -134.838048422758 0.112718176488934 -55.5778418862542 0.216553830781326 -9.60069642569423 
                               0.108624460441795 -55.6303322954603 0.0292696741287201 -147.705016393708 
                               0.0143461389813572 19.9747834485483 0.0111421323307005 155.026751001062 0.0180242991148305 -134.822951914843 0.108611980809614 -55.633275143291 
                               0.204837775271674 -19.7558348062869 0.111187099762425 -60.489227268314 
                               0.0141433178724259 -103.126421889849 0.014358691392058 19.9607910875441 0.01383122292471 119.563136930674 0.0292694198420796 -147.705313659083 
                               0.111187296026729 -60.4894371627497 0.217429645295228 -32.0579618377301 
