! Touchstone file exported from HFSS 2023.2.0
!        File:           C:/Users/aapoi/Documents/Escuela/Maestria/EMT/HFSS/Array_F_CutModel_vivaldi.aedt
!        Generated:      12:48:58 PM  Aug 18, 2025
!        Design:         HFSSDesign1
!        Project:        Array_F_CutModel_vivaldi
!        Setup:          Setup1
!        Solution:       Sweep
!
! Variables:
!        $Bladder_Full_X_Shift = 2.5cm
!        $Bladder_Full_Z_Shift = 3cm
!        $Bladder_shift_from_PB = 35mm
!        $Pubic_Bone_Angle = 55deg
!        $ant_base_offset = 25mm
!        $ant_rot = 8.59788deg
!        $ant_sweep_shift = 25mm
!        $anteposterior_diameter = 10.49cm
!        $axial_bladder_diam = 80mm
!        $back_pelvic_bone_height = 0.1125meter
!        $back_pelvic_bone_rectangle_Xshift = 64.3578981445632mm
!        $bladder_wall_thickness = 3.15mm
!        $body_axial_ratio = 1.59973110444618
!        $body_major_rad = 10.6361cm
!        $body_minor_rad = 17.0149cm
!        $center_bladder_rad = 0.073838504391812meter
!        $coccyx_thickness = -15.5mm
!        $coccyx_tip_width = 10mm
!        $cone_angle_sacrococcyx = 33.56deg
!        $coronal_bladder_diam = 80mm
!        $end_u = 450deg
!        $end_v = 270deg
!        $fat_thickness = 13.5031018554368mm
!        $front_pelvic_bone_height = 55mm
!        $mix_major_rad = 0.0808578981445632meter
!        $model_height = 0.15meter
!        $muscle_thickness = 0.01meter
!        $pelvis_angle = 55deg
!        $pubic_bone_thickness = 16.5mm
!        $rad_curve_back_bones = 89.2mm
!        $sacrum_top_width = 88mm
!        $sagittal_bladder_diam = 100mm
!        $skin_thickness = 0.002meter
!        $start_u = 90deg
!        $start_v = 90deg
!        $striaght_sacrococcyx_length = 126mm
!        $transverse_diameter = 13cm
!        $x_bladder_rad = 50mm
!        $y_bladder_rad = 40mm
!        $z_bladder_rad = 40mm
!        Ad = 1mm
!        An = 5.5mm
!        Bd = 1.7mm
!        Bw = 0.2mm
!        Cd = 5mm
!        Dd = 8.3mm
!        Ed = 5.8mm
!        Fd = 1.3mm
!        Gd = 4.6mm
!        H = 0.05mm
!        Hc = 0.5mm
!        Hd = 4.1mm
!        Hs = 40mm
!        Id = 1.3mm
!        Jd = 6.5mm
!        Kd = 8.5mm
!        Lc = 3mm
!        Ld = 13mm
!        Md = 3.5mm
!        Mount_d = 94mm
!        N = 100
!        Nd = 5.5mm
!        Od = 7.3mm
!        Pd = 15mm
!        Rd = 20mm
!        Rin_c = 0.5mm
!        Rout_c = 1.15mm
!        Rs = 75mm
!        Sd = 20mm
!        Tc = 1mm
!        Wc = 4mm
!        a = 0.05meter
!        b = 0.4meter
!        c = 0.3meter
!        model_height = 0.2meter
!        s_ext = 0.5
!        t = 0deg
!        u = 2rad
!        v = 2rad
!        xd3a = -2.5mm
!        yd3a = -16mm
!        zd3a = -12mm
!
# GHz S MA R 50.000000
! Terminal data exported
! Port[1] = 1
! Port[2] = 2
! Port[3] = 3
! Port[4] = 4
! Port[5] = 5
! Port[6] = 6
0.5                            0.310763167187286 -12.5750398508681 0.0634749024541235 174.095602452765 0.0283657511555253 -8.05291802450323 0.0498070361148814 90.9737049487161 
                               0.015962132235139 43.5305626045696 0.0112411255437793 -24.6193194598692 
                               0.0634748941213119 174.095543427362 0.246489135188482 0.109274005709843 0.0767174140289783 168.919740344131 0.0209109373899036 159.80622485247  
                               0.0719842451122596 102.604807317317 0.0215906062143607 -9.40598878924103 
                               0.0283657586434476 -8.05296300577398 0.0767174175552354 168.919742598493 0.214372514883309 -5.40706677429208 0.0226324882371069 18.8017202684484 
                               0.00585697803383973 -43.3675669185151 0.101130621163549 116.137364028918 
                               0.0498070380555385 90.9737126927221 0.0209109542626317 159.80621287847  0.0226324997139202 18.801750940171  0.385723949212653 5.24901790676002 
                               0.0274637254359183 149.246496675721 0.00982630210148143 3.98144234915472 
                               0.0159621660233856 43.5305062741277 0.0719842403889395 102.604797485339 0.00585697680108348 -43.3675170961794 0.0274637922014674 149.246486889241 
                               0.271948533434438 4.37105149364721 0.0578114263262746 -168.887986528221 
                               0.0112411245009276 -24.6193171347858 0.0215905734136707 -9.40586161758496 0.101130694055392 116.137366068604 0.00982630602752736 3.98145276247648 
                               0.0578113897906299 -168.888046960112 0.308483513194096 6.739078662638   
! Gamma         0                0                0                0                0                0                0                0                0                0                0                0                
! Port Impedance         50               0                50               0                50               0                50               0                50               0                50               0                
0.55                           0.229769620053026 -43.0090235520816 0.0747323620242278 114.369166428519 0.0322284884815665 -99.0068886760399 0.0660531643191347 68.9279442825236 
                               0.0206785711742192 36.5479257400979 0.00988435533562403 -85.7355611226261 
                               0.0747323790553598 114.36919242928  0.212985145396828 -26.7113534648928 0.0680224262349514 113.588173866314 0.0250054159138755 51.6139264760149 
                               0.0917865753145243 64.3807672910266 0.0109003037505922 -14.6447611692921 
                               0.0322285654342125 -99.006905181777 0.0680220545665074 113.594597598142 0.205700467744481 -19.1685249502684 0.0232519788331917 -82.6619104252844 
                               0.00819904283605972 -37.7155362308861 0.11753218460518 63.7047593314464 
                               0.0660531553351577 68.927967839188  0.0250051763884839 51.6138566262376 0.0232519759897376 -82.6630000963884 0.364719903800859 -36.2496607118206 
                               0.0417939475166834 149.113713313881 0.00421848884014386 -157.371105562478 
                               0.0206785291277927 36.5479786247475 0.0917865650388513 64.3807707438239 0.00819697797547896 -37.6886113327661 0.0417941391729187 149.113866278862 
                               0.262747682110494 -17.5956817942829 0.0487708934341237 134.283863232857 
                               0.00988540284192173 -85.7336652018083 0.0109002521913042 -14.6446375598421 0.117530329547004 63.7038741977821 0.00421860486679629 -157.371076522615 
                               0.0487709331213661 134.283833173685 0.305149452546459 -23.9049757494663 
! Gamma         0                0                0                0                0                0                0                0                0                0                0                0                
! Port Impedance         50               0                50               0                50               0                50               0                50               0                50               0                
0.6                            0.191964512760882 -60.6981255824614 0.062610529233138 52.302901577231  0.0206640687606567 165.208483902579 0.0819437334255441 29.8713334915625 
                               0.0352821377004112 -17.0678122280548 0.0153812283948599 -166.579831601367 
                               0.0626104327111787 52.3028957818047 0.170973517274471 -45.6717151251049 0.0467306082766839 59.4373940353764 0.0298218153271648 -24.1346500327091 
                               0.096594400798928 22.1719939063611 0.0204658412029143 -34.260192732524 
                               0.0206641346138314 165.209015800627 0.0467146397611647 59.4293458685121 0.231162212543556 -45.9786094980297 0.0217811884955866 171.858601629727 
                               0.0164958683086091 -70.0116594494916 0.118234341407241 15.2158322564972 
                               0.0819438129214967 29.8713645784204 0.0298223128470183 -24.1353895436689 0.0217814978988167 171.858741698118 0.292460420714997 -74.7441905853602 
                               0.0614230039800696 92.6567813755361 0.00656822344894726 28.6176915847326 
                               0.0352821103682908 -17.0678632360778 0.0965944142590092 22.172020010033  0.0164922094942814 -70.0067221177374 0.0614227534114981 92.6569290896685 
                               0.256267291226134 -47.9455441879356 0.0445065434874237 100.625359292185 
                               0.0153805934512085 -166.577576232681 0.0204657703588227 -34.2602445338411 0.118234583887231 15.2162246114806 0.00656808719493738 28.617711453005  
                               0.0445065901524263 100.625380879825 0.284492560161733 -58.2407604868777 
! Gamma         0                0                0                0                0                0                0                0                0                0                0                0                
! Port Impedance         50               0                50               0                50               0                50               0                50               0                50               0                
0.65                           0.168806737559521 -82.3150306851491 0.0458085970701102 -6.87758811660168 0.01373809805259 100.122440678674 0.0884916115985605 -14.2719964717733 
                               0.0421508975141001 -78.7973771856283 0.0174286375515554 93.6545764343992 
                               0.0458085884187863 -6.87762295195476 0.158549932137523 -70.4247403523538 0.0310337130080698 25.4328309696468 0.037770151295511 -90.902078779887 
                               0.0933679266561459 -18.6527652780178 0.0270122386632537 -86.1597393294551 
                               0.013738095098561 100.122538762955 0.0310354133765848 25.4312917739159 0.21328524872488 -77.7313563412023 0.0199905793290341 70.184231723067  
                               0.0222203811992571 -130.057778534658 0.108683508993584 -33.374192960825 
                               0.0884916286787102 -14.2720082127071 0.0377702525515815 -90.9019559035747 0.0199905478750491 70.1842167741522 0.199555845216413 -105.096720042817 
                               0.065586748634546 26.2112058464379 0.00492282408907039 -67.1098906304282 
                               0.0421509233102224 -78.7973702253826 0.093367958202971 -18.6527644975465 0.0222203490635409 -130.058429169177 0.0655867533135969 26.2111912661924 
                               0.210339337837466 -87.02208260275  0.0455513040471294 51.1485151800007 
                               0.0174287026879947 93.6545618913345 0.0270122619846647 -86.1597947685453 0.108683543181841 -33.3742117478414 0.00492286018482486 -67.1097140299091 
                               0.0455513174613486 51.1485674291027 0.227603400657646 -88.6101735949694 
! Gamma         0                0                0                0                0                0                0                0                0                0                0                0                
! Port Impedance         50               0                50               0                50               0                50               0                50               0                50               0                
0.7                            0.129631781200935 -103.84122111475 0.0262198039291593 -65.6688292158285 0.0122500275927394 5.79480237689983 0.0867763618756457 -58.5994642620591 
                               0.0418530634353451 -139.620074132784 0.0160196521421615 -4.46161447770126 
                               0.0262197421318285 -65.668696884536 0.0992909006634706 -105.219175386755 0.0261840121420899 -10.3900904566465 0.0426352132597197 -157.633643114035 
                               0.0863638605687395 -59.9046842235798 0.0308182989956367 -134.601271393781 
                               0.0122500810796117 5.79501082889335 0.0261955772420414 -10.409508028117 0.160742249561667 -107.385479232108 0.0194330657275802 -28.6446945902082 
                               0.0242766113529362 176.705990169207 0.0855984172289137 -80.2655853813067 
                               0.0867764293720708 -58.5994554171549 0.0426353630519878 -157.633935121668 0.019433126724511 -28.6441816429159 0.126761883538007 -124.963302150265 
                               0.0529523888923828 -46.1263649365977 0.0056542250759982 -33.5546459930182 
                               0.0418530659807768 -139.620122010202 0.086363842550224 -59.9046827156788 0.0242752776859945 176.704993887234 0.0529522396027952 -46.1264251915048 
                               0.118101284268213 -127.118015035705 0.0363995432646584 -6.44530034372626 
                               0.0160197247890881 -4.46197816333749 0.0308182311096092 -134.601300318994 0.0855983603460217 -80.2655835781638 0.00565417205440211 -33.5545630245876 
                               0.0363995960170036 -6.44531075856359 0.173560292366505 -113.897476756593 
! Gamma         0                0                0                0                0                0                0                0                0                0                0                0                
! Port Impedance         50               0                50               0                50               0                50               0                50               0                50               0                
0.75                           0.0759233980865524 -108.996178091807 0.0108166171510822 -117.136213837245 0.0100823962081787 -113.067139303111 0.0776316257168526 -103.043529222527 
                               0.0361083686507734 163.752434037196 0.0131101951713268 -110.935977200161 
                               0.0108166305259923 -117.136109081109 0.0342039975615732 -113.545289969552 0.0195122739801659 -68.7555418252293 0.0454115707410714 136.895000085483 
                               0.0704080162553943 -101.346524730966 0.0381306311847758 167.968344640535 
                               0.0100824338303557 -113.067018251864 0.019512274084159 -68.7555966651245 0.084340796962069 -124.238528443869 0.0184247887564128 -128.957654606553 
                               0.0248797754441496 128.145682579518 0.0583216481058322 -114.764320975789 
                               0.077631581868654 -103.043544848881 0.0454115971044851 136.894973717099 0.018424781811542 -128.957802100924 0.0570276162849669 -138.736126588004 
                               0.0345797694787339 -121.617051595304 0.0184365009959077 -117.179984116092 
                               0.0361083583569228 163.752469150284 0.0704079574028802 -101.346508324237 0.0248797693749306 128.145642539135 0.0345797654682847 -121.617020002817 
                               0.0340126516871181 -160.28915338383 0.0167099876820564 -73.4364306592503 
                               0.0131102869171552 -110.936066520481 0.0381306881345602 167.9683708221   0.0583216304481839 -114.764373061551 0.0184364633680173 -117.179858370286 
                               0.0167099690554215 -73.4365533694091 0.104377970442754 -141.203865021204 
! Gamma         0                0                0                0                0                0                0                0                0                0                0                0                
! Port Impedance         50               0                50               0                50               0                50               0                50               0                50               0                
0.8                            0.0524073064439246 -86.4168220042771 0.00264397864703477 -138.874860383919 0.0129118273422829 118.248073797805 0.0646793843895032 -139.844447360313 
                               0.0305330908340232 113.838267283406 0.00799224740064178 133.561902348839 
                               0.0026439931206098 -138.874013142735 0.0176810909520394 -7.24863815326914 0.00419043728492477 -157.882447538251 0.0424517589239129 67.4187223861942 
                               0.0501819438818879 -121.261960112687 0.0367637342290124 99.9977684974138 
                               0.012911850058549 118.248195821726 0.00425711996208601 -158.318058457265 0.0382563060985461 -93.7781207877733 0.0155500244687551 136.413239399949 
                               0.027731148267698 77.6239837386302 0.0509477208206254 -131.106052776915 
                               0.0646793396767514 -139.844484812111 0.0424518463815742 67.4185843706471 0.0155498629503803 136.413553238695 0.0272242595528727 -70.4004398393492 
                               0.0215283986623385 141.020443282464 0.026979718993767 142.743349602104 
                               0.0305331506444137 113.838168522432 0.0501820099007306 -121.261919425437 0.0277310970338842 77.6245163091711 0.0215282578765981 141.019902332058 
                               0.011924985833579 16.8183654776926 0.00918347966953614 26.294748823518  
                               0.00799241888116803 133.562255109006 0.0367636137409229 99.9976056921006 0.0509474970797925 -131.105718107627 0.0269797114049101 142.743482645849 
                               0.00918346903680922 26.2947373668641 0.0233428593759314 -172.067636928599 
! Gamma         0                0                0                0                0                0                0                0                0                0                0                0                
! Port Impedance         50               0                50               0                50               0                50               0                50               0                50               0                
0.85                           0.0653226429972837 -53.7669870021026 0.00294051664847025 -18.5406183582376 0.0165706070681459 4.63398470981919 0.0647555410787545 -170.977317733349 
                               0.0273490355116767 64.1417125876956 0.00371121071328335 7.08372960158695 
                               0.0029405226258442 -18.54100652132  0.0754407081980718 -3.0711683780275 0.0113217783929077 -16.1681461447208 0.029661638524244 -5.0792517145145 
                               0.0712045678616741 -142.152775017498 0.0272688338599878 35.9695538580228 
                               0.0165706559977331 4.63391637292255 0.011319728006986 -16.1554438162702 0.063917722003727 -42.4255441490641 0.0113502040866863 42.3019253112034 
                               0.0278520572222375 18.6164444511123 0.0651886152017208 -159.761012621617 
                               0.0647555316507349 -170.9773072072  0.0296615444318403 -5.07922924043838 0.0113501746111284 42.3025956238823 0.0608893633212841 -29.2258207915534 
                               0.0184433624052457 25.9148826471793 0.0257878453733246 48.8461707372635 
                               0.0273489628335571 64.141972094214  0.0712046652898629 -142.152905746682 0.0278519893293637 18.6168412155028 0.0184432950885517 25.9148444258196 
                               0.0546390986316098 17.1030409735773 0.0202153098011054 -44.5147637999202 
                               0.00371127726859406 7.0828221810381  0.0272688452950457 35.9693926467224 0.0651886555029603 -159.761018264925 0.025787921739861 48.8462955591931 
                               0.0202152950950456 -44.5147793690629 0.0621296695681242 -8.93379940654001 
