! Touchstone file exported from HFSS 2023.2.0
!        File:           C:/Users/aapoi/Documents/Escuela/Maestria/EMT/HFSS/Array_E_CutModel_vivaldi.aedt
!        Generated:      12:43:40 PM  Aug 18, 2025
!        Design:         HFSSDesign1
!        Project:        Array_E_CutModel_vivaldi
!        Setup:          Setup1
!        Solution:       Sweep
!
! Variables:
!        $Bladder_Full_X_Shift = 2.5cm
!        $Bladder_Full_Z_Shift = 3cm
!        $Bladder_shift_from_PB = 35mm
!        $Pubic_Bone_Angle = 55deg
!        $ant_bottom_shift = 25mm
!        $ant_rot = 18.5deg
!        $ant_spacing = 20mm
!        $ant_sweep_shift = 5mm
!        $anteposterior_diameter = 10.49cm
!        $axial_bladder_diam = 44mm
!        $back_pelvic_bone_height = 0.1125meter
!        $back_pelvic_bone_rectangle_Xshift = 64.3578981445632mm
!        $backset = 0mm
!        $bladder_wall_thickness = 3.15mm
!        $body_axial_ratio = 1.59973110444618
!        $body_major_rad = 10.6361cm
!        $body_minor_rad = 17.0149cm
!        $center_bladder_rad = 0.073838504391812meter
!        $coccyx_thickness = -15.5mm
!        $coccyx_tip_width = 10mm
!        $cone_angle_sacrococcyx = 33.56deg
!        $coronal_bladder_diam = 37mm
!        $end_u = 450deg
!        $end_v = 270deg
!        $fat_thickness = 13.5031018554368mm
!        $front_pelvic_bone_height = 55mm
!        $horizontal_shift = 40mm
!        $horizontal_spacing = 50mm
!        $mix_major_rad = 0.0808578981445632meter
!        $model_height = 0.15meter
!        $muscle_thickness = 0.01meter
!        $pelvis_angle = 55deg
!        $pubic_bone_thickness = 16.5mm
!        $rad_curve_back_bones = 89.2mm
!        $sacrum_top_width = 88mm
!        $sagittal_bladder_diam = 35mm
!        $side_ant_offset = -5.44mm
!        $skin_thickness = 0.002meter
!        $start_u = 90deg
!        $start_v = 90deg
!        $striaght_sacrococcyx_length = 126mm
!        $transverse_diameter = 13cm
!        $x_bladder_rad = 17.5mm
!        $y_bladder_rad = 18.5mm
!        $z_bladder_rad = 22mm
!        Ad = 1mm
!        An = 5.5mm
!        Bd = 1.7mm
!        Bw = 0.2mm
!        Cd = 5mm
!        Dd = 8.3mm
!        Ed = 5.8mm
!        Fd = 1.3mm
!        Gd = 4.6mm
!        H = 0.05mm
!        H_s = 60mm
!        Hc = 0.5mm
!        Hd = 4.1mm
!        Hs = 40mm
!        Id = 1.3mm
!        Jd = 6.5mm
!        Kd = 8.5mm
!        Lc = 3mm
!        Ld = 13mm
!        Md = 3.5mm
!        Mount_d = 94mm
!        N = 100
!        Nd = 5.5mm
!        Od = 7.3mm
!        Pd = 15mm
!        Rd = 20mm
!        Rin_c = 0.5mm
!        Rout_c = 1.15mm
!        Rs = 75mm
!        Sd = 20mm
!        Tc = 1mm
!        W = 60mm
!        Wc = 4mm
!        a = 0.05meter
!        b = 0.4meter
!        c = 0.3meter
!        model_height = 0.2meter
!        s_ext = 0.5
!        t = 0deg
!        thickness = 1.905mm
!        u = 2rad
!        v = 2rad
!        xd3a = -2.5mm
!        yd3a = -16mm
!        zd3a = -12mm
!
# GHz S MA R 50.000000
! Terminal data exported
! Port[1] = 1
! Port[2] = 2
! Port[3] = 3
! Port[4] = 4
! Port[5] = 5
! Port[6] = 6
0.5                            0.20700213687485 -48.4882924764485 0.0297826781362503 -128.557526000844 0.0214862114982298 57.4801817249086 0.0285931278289769 115.692841611836 
                               0.0143664931745909 -134.928977905159 0.00954293223132954 62.2881399512785 
                               0.0297827085295157 -128.557469358245 0.13215244267392 -44.0555175900092 0.0875900210610246 -119.085779159771 0.00429353960986383 118.237372646962 
                               0.0851947585837044 105.038312980911 0.0350224072382908 -107.555651630054 
                               0.0214862110645455 57.4801927797909 0.0875900264783807 -119.08577018154 0.138702043696007 -61.7110132390658 0.0186488581433083 52.887785307461  
                               0.0419545696898255 -107.889104541197 0.0893747081213067 124.564023412818 
                               0.0285931264652105 115.692841107493 0.00429355516160566 118.237187085049 0.018648853637879 52.8877707216244 0.24310671309676 -14.433185935773 
                               0.0446465110679203 2.72981580619828 0.0115053453104318 -70.1019796860827 
                               0.0143665029809145 -134.928976547205 0.0851947494631209 105.038311608639 0.0419545344649711 -107.889108689748 0.0446465081474578 2.72972152181054 
                               0.077383760441323 -5.30699307004534 0.0516522476830917 -66.7870637902134 
                               0.0095429341206758 62.2881558059836 0.035022457061496 -107.555643879785 0.0893747186339811 124.564021996782 0.0115053445125105 -70.1020158257247 
                               0.0516522289490777 -66.7871012976407 0.0945024361351983 -5.1308871941557 
! Gamma         0                0                0                0                0                0                0                0                0                0                0                0                
! Port Impedance         50               0                50               0                50               0                50               0                50               0                50               0                
0.55                           0.146375969799272 -91.3897081935651 0.0300277871610064 -163.756713429727 0.0258521369214767 -2.12494925967142 0.0448936540993068 92.6386101315213 
                               0.00928915222092073 103.197296965744 0.00938385042327813 -5.3897324220355 
                               0.0300277949528871 -163.756625205838 0.0868010701291384 -70.5555949376844 0.0699097699928273 174.864787961434 0.0147064860658431 -63.9820661565214 
                               0.0900607463105368 64.301670288181  0.0219243467539487 132.614535608197 
                               0.0258521495118929 -2.12492997745378 0.0699097682355835 174.864800803956 0.0884175471469847 -84.4599706581951 0.0142552040224105 -21.8345586607906 
                               0.0204624020270915 177.309490526278 0.0967828647704104 69.0571087065709 
                               0.0448936213065387 92.638660023353  0.014706505626911 -63.9808457620406 0.0142549354506138 -21.8342645312046 0.223831691792969 -63.3775534452607 
                               0.0601721909610742 -89.6875031615408 0.0147603008804562 140.842747060389 
                               0.00928917614983407 103.197340210679 0.090060789987461 64.3015793200106 0.0204623341539176 177.309235188715 0.060172207078901 -89.6874638914742 
                               0.108793033373759 -17.4893834222148 0.0688609610573924 -118.201006967155 
                               0.00938385125734604 -5.38975147897864 0.0219243520926697 132.614555106196 0.0967828820904915 69.0571088540468 0.0147603357070352 140.842827973065 
                               0.0688609825601927 -118.200972360762 0.148635989990681 -31.5965914389443 
! Gamma         0                0                0                0                0                0                0                0                0                0                0                0                
! Port Impedance         50               0                50               0                50               0                50               0                50               0                50               0                
0.6                            0.0820814304848445 -131.905623270224 0.0202335018060482 139.769727699299 0.0288593935422537 -92.2080157109088 0.0497132737390871 68.5591007874882 
                               0.0133735750279483 58.0537691510854 0.00993910011201124 -72.1005598756886 
                               0.0202335455762512 139.76968380936  0.0585165118659538 -119.653098748975 0.0380112635402826 121.496352590907 0.016224089565657 -146.163874491438 
                               0.0743606131959275 20.8180715697831 0.0110767958340155 37.8858715229313 
                               0.0288594018760722 -92.2080006650382 0.0380112130017879 121.496305875712 0.0503136959780555 -115.399562425418 0.0113723212806235 -97.7417543783201 
                               0.00707205847681015 149.552784145545 0.0689912697955503 32.2747813848112 
                               0.0497132852310724 68.5591378096097 0.0162240849567475 -146.16371837706 0.0113723772050321 -97.7409589414858 0.164916429799336 -115.745360308224 
                               0.0671063182575002 -160.181834716257 0.0207030676917578 41.2671343839208 
                               0.0133735814523923 58.0537944098898 0.0743605726301826 20.8180880629362 0.00707210023016421 149.553114749347 0.0671063437744559 -160.18180111843 
                               0.0953366924575342 -60.5992649789809 0.07958787126984 -174.524890626369 
                               0.00993909593901699 -72.1005723210078 0.0110767757555604 37.8858029906136 0.0689912668365703 32.274771366111  0.0207030714437052 41.2671281254273 
                               0.079587788011094 -174.524875210838 0.135895000467037 -88.9523452568114 
! Gamma         0                0                0                0                0                0                0                0                0                0                0                0                
! Port Impedance         50               0                50               0                50               0                50               0                50               0                50               0                
0.65                           0.041518967949495 153.76158739717  0.0265909335861229 163.709608767905 0.0159276302599585 177.947770739352 0.0766007727968326 40.4698800118697 
                               0.0211922090763766 -9.71213596627799 0.0105506152439522 -142.294689976883 
                               0.0265909765030555 163.70926144526  0.0523560903597348 122.166939730538 0.0272522102048196 146.400250334349 0.00841002186877814 142.377010421994 
                               0.0546507731181441 -0.543122802813374 0.0105374702569455 8.36050791828237 
                               0.0159276387605408 177.947681708508 0.0272519166171012 146.400451178872 0.0170294077505192 146.299928011817 0.00656548701753556 -169.70863975632 
                               0.00540366637864826 -162.208124822322 0.0751705540449418 17.3296474026493 
                               0.0766007894119537 40.4698866162907 0.00840984231188962 142.376202833234 0.00656521821994932 -169.706167272488 0.0914269658285312 178.122742749596 
                               0.0683182538068415 137.659588604585 0.0223904126825136 -43.4840389188795 
                               0.0211922305391021 -9.71209818297462 0.0546505280384558 -0.543202762939888 0.00540391039421704 -162.208237605617 0.068318271262897 137.659592986744 
                               0.0506383947657996 -126.522227282811 0.0788791801555686 131.621907666993 
                               0.0105506065172862 -142.294624756629 0.0105374696122805 8.36037188220703 0.0751705445189545 17.3296510138434 0.022390374408647 -43.4840482473867 
                               0.0788791099963384 131.621948973299 0.0606203743481983 -159.716093159987 
! Gamma         0                0                0                0                0                0                0                0                0                0                0                0                
! Port Impedance         50               0                50               0                50               0                50               0                50               0                50               0                
0.7                            0.0749924243253244 49.1245555171071 0.0444979020099282 97.9705289414278 0.00827028871941 156.228006577183 0.096424800304034 -10.1261950091462 
                               0.0223541900687906 -80.3484806579675 0.0106914520181071 137.008518069153 
                               0.0444979427134652 97.9705561505606 0.0895288026164651 62.0845550857063 0.0562040102436076 99.6232945970695 0.00691875745459803 -153.724302052317 
                               0.0639293772450523 -14.7737848158129 0.0121835639238616 -52.9449978105199 
                               0.00827028676543444 156.228131570622 0.0562039689148832 99.6232593759773 0.0733910857877525 33.465695265332  0.00515780454919723 122.833503032842 
                               0.0134708277217276 158.803200511577 0.0957278958939218 -26.1913566073101 
                               0.0964248365672074 -10.1261896037555 0.00691871821828195 -153.724273368763 0.00515780142438497 122.833237832915 0.0895567850634359 77.4377823437819 
                               0.0605869200582374 77.4335787052758 0.0226244184865751 -118.911548950075 
                               0.0223542211777232 -80.3484297631756 0.0639293759063573 -14.7738036748309 0.013470859764647 158.803199203497 0.0605869741355069 77.4335820145292 
                               0.0693501296552151 99.483203830923  0.0726739399791305 83.1616901612219 
                               0.0106914632747037 137.008593853049 0.0121835604800374 -52.945026232622 0.0957278750072154 -26.1913548896447 0.0226244023571319 -118.911533542407 
                               0.0726739293294473 83.1617053970937 0.0699073529679634 58.632320570648  
! Gamma         0                0                0                0                0                0                0                0                0                0                0                0                
! Port Impedance         50               0                50               0                50               0                50               0                50               0                50               0                
0.75                           0.137387191940991 3.16764656104809 0.0381794097433156 40.095942812767  0.0129541784650136 105.918453804555 0.0928079511382362 -58.1076826642856 
                               0.0159213031725887 -143.19499633342 0.00792543247567966 59.8436724149862 
                               0.0381794298370661 40.0959629915099 0.147970852471332 29.3656102294662 0.0613137706850916 39.2218950459945 0.0165673283114109 136.504097288572 
                               0.0819072487245927 -55.4375790897194 0.0107501282878038 -86.7726431995254 
                               0.0129542083953696 105.918581184689 0.0613137996566377 39.2219043228705 0.129923747531481 -3.65636498300817 0.00266147345541035 16.2067699543428 
                               0.0179418540245311 95.4985594244224 0.0894189534281713 -73.1436470781777 
                               0.0928079813666101 -58.1076780196339 0.0165673230794657 136.504066585236 0.00266146089377943 16.2063231081613 0.15978373952507 12.6858679413566 
                               0.0432615620165909 25.3237722294918 0.0209960375059458 163.705355008099 
                               0.0159213355588677 -143.194999146549 0.0819073050149617 -55.4375816918535 0.0179418598547455 95.4985143587896 0.0432615722219531 25.3237555907904 
                               0.148526373946233 36.2867210954319 0.0656888436864239 39.0758465852752 
                               0.00792544600272311 59.8436868516882 0.0107501194301589 -86.7725956817376 0.0894189351836792 -73.1436385535732 0.0209960309463461 163.705424415069 
                               0.0656888453295035 39.0758311697092 0.149478294935562 -0.704915971405413 
! Gamma         0                0                0                0                0                0                0                0                0                0                0                0                
! Port Impedance         50               0                50               0                50               0                50               0                50               0                50               0                
0.8                            0.179761801030053 -25.3407516001625 0.0316585164219049 2.58478412269146 0.0147981049534406 32.195478369271  0.0850745620055689 -98.4134930305056 
                               0.0093613920997846 -174.919065845381 0.00586287126374715 3.36550678771704 
                               0.0316584274401927 2.58485793525156 0.196717373876478 -3.80368567835722 0.0499048452539844 -14.9855771122187 0.0175326088364522 68.3458310314787 
                               0.0767578674188104 -100.372597890643 0.0154306841264761 -125.895095205193 
                               0.0147981758473019 32.1954269575193 0.0499048725945506 -14.9850099637593 0.175043659841959 -26.8196899101864 0.00227923042217573 -176.471574531481 
                               0.0160668823976338 24.8948951075284 0.0776433411378318 -113.016874957231 
                               0.0850746020419966 -98.4134621209818 0.0175326202584153 68.3468875278753 0.00227930304132796 -176.471711815842 0.209089481606102 -27.1152996041289 
                               0.0303635803223383 -9.46390694046909 0.0178627019798343 92.0943861640635 
                               0.00936137999105742 -174.919235846586 0.0767580924621443 -100.372623072968 0.0160668080442359 24.8952837580951 0.0303634801512118 -9.46444755689698 
                               0.189638691195808 -5.81770035114828 0.0640184989324019 -4.10317815830544 
                               0.0058628645057206 3.36539367747999 0.0154306211952449 -125.895298993817 0.077643338324448 -113.016870756468 0.0178626845997178 92.0943996728368 
                               0.0640184558999039 -4.10320014191844 0.187729878703306 -35.5803892676123 
! Gamma         0                0                0                0                0                0                0                0                0                0                0                0                
! Port Impedance         50               0                50               0                50               0                50               0                50               0                50               0                
0.85                           0.214845705834072 -44.7162937033481 0.0313255085195353 -38.1438312707327 0.0135726699574213 -44.1852958888857 0.0834290366338951 -138.087577774169 
                               0.0091375373854169 165.633997350007 0.00592745485594269 -51.0900991819015 
                               0.0313254454622345 -38.1441268677477 0.211235931795191 -31.8993374813302 0.036833960452204 -56.7498190946699 0.0136084495834385 5.11268644440339 
                               0.0667227409863342 -132.533307720972 0.0192446297539676 175.0128750384   
                               0.0135727412784722 -44.1850895370554 0.0368344719920284 -56.7511713598863 0.212094356436773 -46.6773174570856 0.0045666665156675 65.1723093599023 
                               0.00720517226330092 -42.5017182873633 0.0675340852042707 -149.425971053449 
                               0.0834288756497181 -138.087495223713 0.0136087116952307 5.11222244041261 0.00456658918863639 65.1723543237424 0.216088508256363 -54.3137843352526 
                               0.026040030827664 -34.2050966769839 0.015459909029062 20.8618741473096 
                               0.00913752156878167 165.634100553197 0.0667228640442962 -132.532972348787 0.00720518540279059 -42.503227380261 0.0260401842763118 -34.2053955540585 
                               0.191648581649247 -33.1594554874005 0.0599258328299662 -56.2718130652037 
                               0.00592745960162275 -51.0902710327493 0.0192447668949555 175.011951638286 0.0675340838982348 -149.425950877729 0.0154598829001907 20.8615001230548 
