! Touchstone file exported from HFSS 2023.2.0
!        File:           C:/Users/aapoi/Documents/Escuela/Maestria/EMT/HFSS/Array2_F_CutModel_vivaldi.aedt
!        Generated:      2:53:32 PM  Aug 22, 2025
!        Design:         HFSSDesign1
!        Project:        Array2_F_CutModel_vivaldi
!        Setup:          Setup1
!        Solution:       Sweep
!
! Variables:
!        $Bladder_Full_X_Shift = 2.5cm
!        $Bladder_Full_Z_Shift = 3cm
!        $Bladder_shift_from_PB = 35mm
!        $Pubic_Bone_Angle = 55deg
!        $ant_base_offset = 25mm
!        $ant_rot = 8.59788deg
!        $ant_sweep_shift = 25mm
!        $anteposterior_diameter = 10.49cm
!        $axial_bladder_diam = 80mm
!        $back_pelvic_bone_height = 0.1125meter
!        $back_pelvic_bone_rectangle_Xshift = 64.3578981445632mm
!        $bladder_wall_thickness = 3.15mm
!        $body_axial_ratio = 1.59973110444618
!        $body_major_rad = 10.6361cm
!        $body_minor_rad = 17.0149cm
!        $center_bladder_rad = 0.073838504391812meter
!        $coccyx_thickness = -15.5mm
!        $coccyx_tip_width = 10mm
!        $cone_angle_sacrococcyx = 33.56deg
!        $coronal_bladder_diam = 80mm
!        $end_u = 450deg
!        $end_v = 270deg
!        $fat_thickness = 13.5031018554368mm
!        $front_pelvic_bone_height = 55mm
!        $mix_major_rad = 0.0808578981445632meter
!        $model_height = 0.15meter
!        $muscle_thickness = 0.01meter
!        $pelvis_angle = 55deg
!        $pubic_bone_thickness = 16.5mm
!        $rad_curve_back_bones = 89.2mm
!        $sacrum_top_width = 88mm
!        $sagittal_bladder_diam = 100mm
!        $skin_thickness = 0.002meter
!        $start_u = 90deg
!        $start_v = 90deg
!        $striaght_sacrococcyx_length = 126mm
!        $transverse_diameter = 13cm
!        $x_bladder_rad = 50mm
!        $y_bladder_rad = 40mm
!        $z_bladder_rad = 40mm
!        Ad = 1mm
!        An = 5.5mm
!        Bd = 1.7mm
!        Bw = 0.2mm
!        Cd = 5mm
!        Dd = 8.3mm
!        Ed = 5.8mm
!        Fd = 1.3mm
!        Gd = 4.6mm
!        H = 0.05mm
!        Hc = 0.5mm
!        Hd = 4.1mm
!        Hs = 40mm
!        Id = 1.3mm
!        Jd = 6.5mm
!        Kd = 8.5mm
!        Lc = 3mm
!        Ld = 13mm
!        Md = 3.5mm
!        Mount_d = 94mm
!        N = 100
!        Nd = 5.5mm
!        Od = 7.3mm
!        Pd = 15mm
!        Rd = 20mm
!        Rin_c = 0.5mm
!        Rout_c = 1.15mm
!        Rs = 75mm
!        Sd = 20mm
!        Tc = 1mm
!        Wc = 4mm
!        a = 0.05meter
!        b = 0.4meter
!        c = 0.3meter
!        model_height = 0.2meter
!        s_ext = 0.5
!        t = 0deg
!        u = 2rad
!        v = 2rad
!        xd3a = -2.5mm
!        yd3a = -16mm
!        zd3a = -12mm
!
# GHz S MA R 50.000000
! Terminal data exported
! Port[1] = 1_1
! Port[2] = 2_1
! Port[3] = 3_1
! Port[4] = 4_1
! Port[5] = 5_1
! Port[6] = 6_1
0.5                            0.279481768361533 2.19230073049154 0.188919720277996 160.361576530169 0.13137792880023 89.3584664314676 0.0830034399506502 34.6154773080284 
                               0.0563931900792796 -23.9195183903171 0.0522040707215415 -89.7502782954454 
                               0.188919715461837 160.361581669748 0.334111887035574 7.36358247997346 0.15443004336895 175.81157704401  0.0970110438722006 103.881179208803 
                               0.0657834255168545 46.0903507340828 0.0564450948437876 -24.0294327590042 
                               0.131377928680132 89.3584813410823 0.154430033915642 175.811584830612 0.292305859049628 6.15944728855216 0.132454352330562 167.886672898431 
                               0.0970447705026489 104.002127344886 0.0832010863715216 34.609113417064  
                               0.0830034442078834 34.6154857629354 0.0970110453270531 103.881181102776 0.132454362690806 167.88666662509  0.291500967201647 6.22572531837456 
                               0.154338742789854 176.01995440521  0.13134851490041 89.4279215722244 
                               0.0563931919884866 -23.9195222665267 0.0657834262287543 46.0903403317355 0.0970447789479841 104.002108718892 0.154338758460658 176.019945468915 
                               0.335140125536325 7.60415859446989 0.188881052220047 160.456991126496 
                               0.0522040710391166 -89.7502745062998 0.0564450936155956 -24.0294376689106 0.0832010817607877 34.6091002935925 0.131348506306605 89.4279165987317 
                               0.188881041543355 160.456995952335 0.279449617308759 2.24701806382839 
! Gamma         0                0                0                0                0                0                0                0                0                0                0                0                
! Port Impedance         50               0                50               0                50               0                50               0                50               0                50               0                
0.55                           0.271316107118287 -28.2719484782065 0.182465200755513 126.033070187132 0.120293777737944 41.2193893471638 0.0848555596133856 -25.519182490824 
                               0.0525566734989924 -80.3233916308348 0.0360765854434882 -169.705493830963 
                               0.182465199250726 126.033092836447 0.346278552043946 -32.6355960336326 0.188490021905599 144.344111577355 0.113522373776292 57.2356524250508 
                               0.0763597986589997 -3.22820576579184 0.0525939125284869 -80.4232480911642 
                               0.120293770942911 41.2194237110414 0.18849001395668 144.344119659781 0.304127792583333 -28.9308281065291 0.178456509108288 130.512971959037 
                               0.113722848634362 57.3717914141281 0.0850434940550599 -25.5305715255126 
                               0.0848555445004309 -25.5191478429626 0.113522348182634 57.2356511976015 0.178456485862734 130.512969445611 0.303233264563273 -28.9743459878643 
                               0.188505244005382 144.502408239879 0.120284296277155 41.2811970852899 
                               0.0525566786065124 -80.3233768530446 0.0763597944952442 -3.22822423525786 0.113722852720991 57.3717682531325 0.188505279755287 144.502388086212 
                               0.347602104147063 -32.3947216715357 0.182463869307844 126.132622898565 
                               0.0360765901585845 -169.705472059889 0.0525939084595469 -80.4232572690544 0.0850434928588785 -25.5305888147743 0.120284310513441 41.2811818490038 
                               0.182463859233956 126.132625986571 0.27122749389859 -28.1919226910108 
! Gamma         0                0                0                0                0                0                0                0                0                0                0                0                
! Port Impedance         50               0                50               0                50               0                50               0                50               0                50               0                
0.6                            0.266349150607951 -59.3504922932183 0.168248984372258 96.8398631194285 0.107360672656719 3.16358476727132 0.0723650396122739 -77.7775893157563 
                               0.0538982393056439 -137.609746064952 0.0241792677670264 151.321696115269 
                               0.168248998529043 96.8398875747039 0.314091150323528 -69.0980191059967 0.206841724040658 111.523735680746 0.11456225512187 11.3798087362473 
                               0.084550362223084 -57.7233676182903 0.0539474194670729 -137.718479244438 
                               0.107360671553063 3.16362837462873 0.206841544619682 111.523604165935 0.279774221562158 -63.8490391424389 0.174075692158182 95.6475340593469 
                               0.114830875262761 11.4815900226544 0.072519985330633 -77.7695492229537 
                               0.0723650495115185 -77.7775699148526 0.114562270349767 11.3798330102049 0.174075642455912 95.6475631191192 0.278760404370518 -63.955042069002 
                               0.206870622039039 111.667564751682 0.107364871163743 3.21287677686269 
                               0.0538981438057576 -137.60984988486 0.0845503615849807 -57.7233702514295 0.114830831565008 11.4815525979093 0.206870689392461 111.667709644934 
                               0.315639185334881 -68.8243928984708 0.168272224909296 96.9658685348199 
                               0.0241792205411676 151.321186720375 0.0539474429905823 -137.71847441886 0.0725199696118644 -77.7695594287264 0.107364879560923 3.21285684108605 
                               0.168272217218766 96.965860760519  0.266237254312196 -59.2628506836459 
! Gamma         0                0                0                0                0                0                0                0                0                0                0                0                
! Port Impedance         50               0                50               0                50               0                50               0                50               0                50               0                
0.65                           0.23126465007    -92.9250794906807 0.163175640323837 70.958102970334  0.103670094185615 -36.6134487329702 0.0679048864345597 -122.887833427583 
                               0.0498022063862039 163.66042909218  0.0330615897106188 94.9980522180337 
                               0.163175645796031 70.9581285113074 0.262859576780467 -102.453733255344 0.212780664133749 75.821318325718  0.109915214828409 -31.6437479331882 
                               0.0824852921794411 -113.468022129426 0.0498495458962266 163.543037404208 
                               0.103670075046425 -36.6134032299329 0.212780699117697 75.8214671764993 0.233837346002774 -98.6023250367726 0.172240363783083 64.7222386162578 
                               0.110151670373823 -31.5682380745918 0.0681017959734844 -122.859381671397 
                               0.0679049158346115 -122.887802106817 0.109915124034498 -31.643736971439 0.172240208282141 64.7222573961324 0.232806990424613 -98.7679459011156 
                               0.212832292352278 75.9744729286049 0.103674092442094 -36.5499644818003 
                               0.0498037001445932 163.660674475467 0.082485260601505 -113.468048551496 0.110151713930476 -31.5682723556613 0.212832402576982 75.9742987830114 
                               0.264700649309252 -102.118899316264 0.163268795040596 71.1176723299414 
                               0.0330619752334184 94.9978188309044 0.0498491983330659 163.543093463424 0.0681017727589973 -122.859410410593 0.103674118324003 -36.5499849466386 
                               0.163268826569088 71.1176779650752 0.231085428181298 -92.8442275370392 
! Gamma         0                0                0                0                0                0                0                0                0                0                0                0                
! Port Impedance         50               0                50               0                50               0                50               0                50               0                50               0                
0.7                            0.170368056478279 -125.331251872717 0.171304743870785 40.0201006807821 0.0985532994668693 -77.2740121067697 0.0649214710723242 -173.575554993977 
                               0.0457784903734424 109.134941804828 0.0263296459525379 17.1351480867986 
                               0.171304750435284 40.0201308062714 0.204629659371561 -136.08683241486 0.200656527068822 39.7794697525414 0.106465233726801 -75.6260366698866 
                               0.074993312890854 -165.461688375624 0.0457802251668661 109.004773021347 
                               0.0985532976527755 -77.2739666673063 0.200656502699499 39.7794459841569 0.186662893433565 -138.426393851262 0.165998310231269 32.9842279130762 
                               0.106688549830292 -75.5261136539081 0.0651701081530442 -173.570727545174 
                               0.0649214614950891 -173.575528103662 0.106465208440631 -75.6260547382957 0.165998248689457 32.9842134896934 0.185765412924981 -138.682754447554 
                               0.200757060931088 39.9503653475893 0.0986136355953293 -77.204819549789 
                               0.0457794706572477 109.135885695788 0.0749933191766264 -165.461711490112 0.106688556237616 -75.5261234991319 0.200757074492944 39.9503908309912 
                               0.206704675336838 -135.633821318975 0.171545403649282 40.2036561603507 
                               0.0263296556665415 17.1356263712267 0.0457799568300515 109.004660243462 0.0651701087355262 -173.570761707194 0.0986136596517461 -77.2048409947769 
                               0.171545386090883 40.2036473014942 0.170121328922245 -125.245822172709 
! Gamma         0                0                0                0                0                0                0                0                0                0                0                0                
! Port Impedance         50               0                50               0                50               0                50               0                50               0                50               0                
0.75                           0.0996479717424272 -164.803699909119 0.168132698177021 2.47465663777169 0.0957993073403203 -121.611406807125 0.0599361347603216 137.207163429635 
                               0.0404883273498801 50.7174090374316 0.0176919063328536 -35.2234043540936 
                               0.168132718808499 2.47469924463979 0.14548364717034 -179.252616384914 0.186750365579719 4.95946849340736 0.0953667235059313 -121.791751262031 
                               0.070991779969625 143.656777260743 0.0404912503000371 50.618161457378  
                               0.0957993113461845 -121.611350367025 0.186750362493059 4.95947314366416 0.134625607986431 167.276158820258 0.165279131400088 0.236519129488626 
                               0.0956488843881408 -121.668780318622 0.0601901475882481 137.177542157077 
                               0.0599361233134228 137.207204215017 0.0953667092956366 -121.791760010002 0.165279112527055 0.236507472606832 0.134249004231433 166.864796410375 
                               0.186882031046098 5.14665700150015 0.0958651179751678 -121.572372899213 
                               0.0404883370687352 50.7174321096069 0.0709917784823158 143.656757027736 0.0956488809195065 -121.668803230722 0.186882054602967 5.14664785835005 
                               0.147521683462052 -178.453604949002 0.168523211559887 2.65456351063998 
                               0.0176919105002016 -35.2234180954034 0.0404912418460442 50.6181184154795 0.0601901487327696 137.177489579174 0.0958651340480597 -121.572407756403 
                               0.168523203402872 2.65454398223798 0.0994112878542655 -164.688883509424 
! Gamma         0                0                0                0                0                0                0                0                0                0                0                0                
! Port Impedance         50               0                50               0                50               0                50               0                50               0                50               0                
0.8                            0.0515559874201633 92.0312079986736 0.154274833478894 -35.9301031592039 0.0855944089080728 -169.839880373366 0.0561605713579215 82.3281599631966 
                               0.0360520673392715 0.156444614725529 0.0148738658232247 -77.8790977329863 
                               0.154274863755375 -35.9300558382554 0.107598308635479 108.279071402533 0.173697076157387 -32.856210918416 0.082976270564293 -165.930608591195 
                               0.0631583884599924 87.7007046172877 0.0360946112145354 0.0400778622363239 
                               0.0855944305720505 -169.839812794859 0.173696605298491 -32.8560937259715 0.124158438668282 96.6432844702782 0.156173617807722 -37.4445677979072 
                               0.0833344885855844 -165.817319172857 0.0564172333603649 82.3069480663021 
                               0.0561605669573429 82.3281554486325 0.0829763707231538 -165.930479156499 0.156173596998069 -37.4446034062111 0.124483435543479 96.3539259410475 
                               0.173814629644502 -32.6429473351655 0.0855939692050472 -169.794445801285 
                               0.0360518504418192 0.156198415718477 0.0631582874747256 87.7008923780504 0.0833343599735206 -165.817432633956 0.173815281086258 -32.6430326222261 
                               0.108128885824155 109.784906989368 0.154705118895608 -35.774120327509 
                               0.0148739080997515 -77.8789878159635 0.0360946859020574 0.0401064981360273 0.0564172206551805 82.3069283399831 0.085593956153899 -169.794480446849 
                               0.154705133869026 -35.7741603718548 0.051398117552587 92.0255551052903 
! Gamma         0                0                0                0                0                0                0                0                0                0                0                0                
! Port Impedance         50               0                50               0                50               0                50               0                50               0                50               0                
0.85                           0.128629518125396 6.30869876260178 0.139056920001522 -76.4262484376723 0.0690588614542696 143.692196051302 0.0454027916619495 25.8773112402411 
                               0.0337452403231742 -57.0094284407958 0.0175401673098929 -124.581814570414 
                               0.139057005641534 -76.426231501871 0.147771045079689 34.2098249003576 0.154303401559311 -71.8207889652275 0.0678747758123716 147.394680091032 
                               0.0511790338398119 35.7225665676674 0.0338132070176365 -57.2270147329613 
                               0.069058809410535 143.692331647072 0.154303318044049 -71.8211418877912 0.170238388331139 36.357900057374  0.136886863550168 -75.7678690108551 
                               0.0682486849759959 147.467384983271 0.0456969445387326 25.897977960778  
                               0.0454029513636076 25.8773546221404 0.0678743003225746 147.395638027    0.136886886214984 -75.7678771690985 0.170700691647887 36.3991783988517 
                               0.154386139533797 -71.5189540111858 0.0690598753614548 143.812176976466 
                               0.0337454966464717 -57.0097807261218 0.0511771003193294 35.7235480716585 0.0682486616223861 147.466539371307 0.154385879001509 -71.5185333715115 
                               0.146474445685211 35.1347018133578 0.13943440430152 -76.2419767043725 
                               0.0175400841686917 -124.581726117516 0.0338130947825827 -57.2268261669228 0.045696802547196 25.8979286923388 0.0690599108906351 143.812092329487 
                               0.139434292236513 -76.2419396531307 0.12848154302533 6.34687266578553 
! Gamma         0                0                0                0                0                0                0                0                0                0                0                0                
